!Keysight Technologies,P9377B,MY61100142,A.16.70.00
!Date: Tuesday, September 12, 2023 10:54:28
!Correction: S11(C  2-Port  ) 
!S21(C  2-Port  ) 
!S12(C  2-Port  ) 
!S22(C  2-Port  ) 
!S2P File: Measurements: S11, S21, S12, S22:
# Hz S  dB   R 50
10000000000 -26.415976 118.37745 -77.158287 -20.088928 -106.8101 -13.573729 -12.536388 -75.782761
10001062500 -26.466948 117.11299 -78.524216 -94.981636 -74.813438 -101.71425 -12.519041 -75.711601
10002125000 -26.68796 115.7802 -74.162338 -87.230247 -82.554657 -41.994968 -12.524226 -75.744308
10003187500 -26.788794 114.61866 -80.483139 -136.7269 -78.718994 -95.317856 -12.528181 -75.681999
10004250000 -26.943142 113.24056 -73.540321 -34.738972 -77.178818 0.10049118 -12.513895 -75.643272
10005312500 -27.035919 111.96865 -75.056618 177.83896 -72.408463 -120.30914 -12.503747 -75.647423
10006375000 -27.203241 110.914 -76.387962 -163.86324 -73.06945 -148.19321 -12.522519 -75.661102
10007437500 -27.386505 109.35059 -75.729042 -30.479753 -74.396179 131.90172 -12.51591 -75.589226
10008500000 -27.536549 108.73023 -77.387283 -15.161323 -72.166367 -58.14127 -12.540288 -75.522743
10009562500 -27.747974 107.07496 -74.964806 45.335274 -79.162491 -133.77858 -12.535338 -75.387917
10010625000 -27.898075 105.26178 -79.057533 72.476624 -73.513435 26.563438 -12.498488 -75.216766
10011687500 -28.036139 105.04388 -71.615097 35.902924 -77.944565 41.683044 -12.468299 -75.313087
10012750000 -28.219303 103.32072 -80.292389 -47.094105 -75.480453 49.057793 -12.47956 -75.501434
10013812500 -28.411026 102.06233 -71.87075 84.194756 -79.601219 12.446029 -12.499765 -75.524529
10014875000 -28.502546 101.36498 -79.109566 -14.933394 -89.36718 163.53194 -12.499063 -75.292336
10015937500 -28.700882 99.809196 -72.957611 51.70504 -78.155975 120.2998 -12.46736 -75.183594
10017000000 -28.859642 98.269196 -78.609756 -40.391819 -78.839996 70.634361 -12.438348 -75.301247
10018062500 -29.003141 96.976219 -82.742188 -61.439205 -78.041611 20.389736 -12.438087 -75.49762
10019125000 -29.19014 95.978943 -81.520363 -177.95357 -76.180504 58.201656 -12.447674 -75.483978
10020187500 -29.366697 94.919403 -76.573021 -160.74359 -74.154686 -15.936707 -12.453496 -75.509117
10021250000 -29.528166 93.706833 -78.083092 15.241405 -74.784355 -24.168461 -12.455212 -75.581276
10022312500 -29.734312 92.597481 -73.155304 -3.9718544 -78.468452 -162.03749 -12.467375 -75.407021
10023375000 -29.897572 91.303932 -74.025688 56.708958 -75.864395 -175.73158 -12.435034 -75.390419
10024437500 -30.086802 89.912628 -80.810692 -48.16959 -78.696053 66.901161 -12.443167 -75.661896
10025500000 -30.259937 89.115639 -78.901489 -49.050831 -72.655312 -95.358154 -12.487921 -75.633865
10026562500 -30.421684 87.931404 -82.079094 53.389786 -89.232994 24.143446 -12.505898 -75.343185
10027625000 -30.609533 86.476563 -72.80455 -103.1685 -73.009079 -134.0025 -12.463307 -75.159531
10028687500 -30.754129 85.823753 -74.787132 -32.797287 -74.270683 -37.927238 -12.455897 -75.282173
10029750000 -30.819471 84.279381 -75.869606 121.93489 -75.491478 -118.89072 -12.471614 -75.178612
10030812500 -31.116175 82.794289 -77.00898 -63.689629 -81.105095 -156.83083 -12.476391 -75.067528
10031875000 -31.309179 81.827477 -74.883087 62.525402 -75.489685 -93.804451 -12.458446 -74.813393
10032937500 -31.33732 80.190437 -76.275307 102.59046 -71.427322 -1.1288301 -12.395634 -74.932785
10034000000 -31.619234 79.408722 -78.267845 178.33736 -79.323639 126.27634 -12.414508 -75.03566
10035062500 -31.727177 77.958282 -86.507309 -149.29871 -77.142807 -96.657326 -12.424367 -74.979324
10036125000 -31.960613 75.759575 -78.276917 129.02403 -80.127235 -25.532452 -12.389695 -74.765884
10037187500 -32.176392 75.913383 -81.938286 -125.30704 -79.653038 112.73133 -12.367462 -74.879547
10038250000 -32.212097 73.608536 -81.678787 -15.918739 -76.6856 156.21712 -12.38872 -75.003761
10039312500 -32.431595 72.77713 -75.4123 106.09051 -81.444511 98.013916 -12.391943 -74.734734
10040375000 -32.724339 71.361946 -80.602989 -19.648218 -80.883064 -17.078377 -12.364291 -74.563866
10041437500 -32.870182 70.478027 -71.052811 51.147205 -80.303894 97.252541 -12.341864 -74.535141
10042500000 -33.065277 69.369011 -76.46093 51.627045 -76.13784 80.026512 -12.323614 -74.437859
10043562500 -33.255344 67.485825 -93.440292 94.230537 -76.061577 -11.168597 -12.279463 -74.596664
10044625000 -33.532372 67.07225 -81.661362 -84.821625 -70.984352 -34.278481 -12.257542 -74.637451
10045687500 -33.570633 66.080841 -79.800117 156.36504 -73.954651 -158.92676 -12.236354 -74.767433
10046750000 -33.951389 63.859474 -86.57193 35.142811 -70.480286 68.698044 -12.218634 -74.783752
10047812500 -34.126545 63.646599 -73.259064 -17.496334 -72.993546 98.800056 -12.238515 -74.770195
10048875000 -34.344044 62.762459 -77.26487 22.951927 -73.090912 136.51176 -12.186109 -74.79129
10049937500 -34.566746 61.516552 -86.229408 86.738724 -71.56929 65.067299 -12.159752 -75.015091
10051000000 -34.866829 60.919727 -76.331139 129.49312 -89.749794 38.355614 -12.178325 -75.251373
10052062500 -34.9622 59.945518 -73.750008 163.68484 -79.585876 -110.71076 -12.177812 -75.082344
10053125000 -35.261341 58.222015 -89.837326 60.218857 -76.483994 -65.941528 -12.176766 -74.986748
10054187500 -35.396523 57.831055 -76.430481 -66.227165 -82.343475 165.92603 -12.150378 -75.140907
10055250000 -35.62999 56.954006 -81.584785 62.69286 -77.250847 115.78069 -12.137912 -75.071228
10056312500 -35.823067 55.533382 -77.230377 -97.743843 -79.904343 78.158768 -12.12424 -75.124901
10057375000 -36.139565 54.807178 -73.769531 -110.31268 -81.3722 173.19025 -12.098097 -75.261238
10058437500 -36.259335 55.272854 -80.431877 121.11002 -76.108749 128.54655 -12.097021 -75.396172
10059500000 -36.592949 55.47971 -78.527565 148.52438 -84.281425 -156.56976 -12.09516 -75.347527
10060562500 -36.729374 54.087727 -79.17511 -174.32681 -80.894318 74.524658 -12.081959 -75.488968
10061625000 -36.924625 53.74284 -76.300133 61.678249 -72.861359 22.205141 -12.068492 -75.528503
10062687500 -37.127567 53.54356 -70.505341 -35.688793 -76.055466 -18.519295 -12.04636 -75.60041
10063750000 -37.32114 51.636806 -68.490303 5.1878614 -69.814903 21.690613 -12.031599 -75.74115
10064812500 -37.64109 52.898232 -80.11956 32.187832 -76.464874 16.188673 -12.00131 -75.885925
10065875000 -38.089405 51.394276 -73.174728 -37.608841 -70.775612 15.361523 -12.010667 -76.177383
10066937500 -38.110523 51.646732 -93.044952 131.81061 -85.898506 -86.402946 -12.026228 -76.461159
10068000000 -38.209568 51.960445 -72.848602 -18.603415 -81.627808 25.364212 -12.044072 -76.495224
10069062500 -38.429314 52.815411 -74.317696 -93.951164 -78.23745 34.266705 -12.035624 -76.480576
10070125000 -38.557152 51.303047 -71.198387 -40.551495 -96.416451 -45.616039 -12.049582 -76.61644
10071187500 -38.94812 51.359299 -80.415619 25.051722 -73.31321 45.183777 -12.058748 -76.660095
10072250000 -39.201351 52.217609 -68.781075 70.031029 -74.517387 -25.946491 -12.054878 -76.739601
10073312500 -39.306648 52.051056 -85.699539 -124.94798 -75.752831 -35.463833 -12.065336 -76.829933
10074375000 -39.390339 51.940758 -75.590202 -85.040306 -85.13575 -57.821392 -12.06556 -76.93132
10075437500 -39.744057 52.209797 -81.963242 -33.713909 -83.975586 -48.835567 -12.084994 -76.876038
10076500000 -39.982468 52.085556 -73.456886 55.924931 -77.770432 47.290894 -12.081501 -76.864311
10077562500 -40.279224 51.929459 -79.449814 161.67117 -73.973328 -21.917345 -12.079531 -76.768112
10078625000 -40.233925 51.845516 -81.725311 -10.007014 -78.20356 40.451336 -12.062152 -76.927071
10079687500 -40.684261 54.196133 -71.710594 -29.001455 -86.318382 -60.142384 -12.065862 -77.240433
10080750000 -40.851357 53.35479 -76.528023 -44.572227 -75.851685 -21.933033 -12.113113 -77.291901
10081812500 -41.103748 53.316143 -83.048859 113.79099 -89.446861 -152.00967 -12.113237 -77.171562
10082875000 -41.379364 56.80484 -73.411125 143.06052 -75.579659 59.666401 -12.103771 -77.215347
10083937500 -41.431248 58.498291 -67.509048 -178.32664 -90.528999 4.1517425 -12.114243 -77.260468
10085000000 -41.46722 55.014668 -70.98275 19.400011 -80.110825 -82.033707 -12.121812 -77.20472
10086062500 -41.801567 58.978214 -87.439964 55.285366 -77.035545 64.333992 -12.125853 -77.173393
10087125000 -41.881927 58.183048 -74.988487 58.629971 -85.575813 114.88202 -12.111093 -77.155891
10088187500 -42.139954 59.950012 -81.81002 -49.443493 -85.172729 91.540825 -12.092328 -77.254272
10089250000 -42.125198 60.381092 -70.704971 72.678223 -73.266075 38.389881 -12.094179 -77.348877
10090312500 -41.925217 63.028664 -75.384651 -79.34819 -83.061554 -31.487974 -12.112643 -77.498161
10091375000 -42.23658 65.453102 -73.350815 91.8479 -75.553246 32.238594 -12.125043 -77.466782
10092437500 -42.672462 67.056793 -75.77121 -98.641327 -70.659554 -39.117691 -12.108697 -77.418472
10093500000 -42.31279 67.384361 -80.435684 64.567696 -73.39592 -20.97673 -12.090662 -77.454773
10094562500 -42.116581 69.985565 -72.127419 -23.948948 -83.76947 40.961914 -12.086308 -77.59494
10095625000 -42.030087 71.107063 -78.39711 139.92172 -73.206123 -86.596924 -12.095944 -77.910408
10096687500 -41.772461 73.361076 -72.912193 -36.526833 -72.319855 12.301669 -12.128998 -77.977516
10097750000 -41.754166 76.022675 -69.9095 -74.086105 -76.028748 -171.23128 -12.146325 -77.923615
10098812500 -41.963337 76.016937 -77.765945 -66.108803 -78.111763 -63.071041 -12.147339 -77.924644
10099875000 -41.798176 78.103203 -73.08416 -71.386635 -73.864365 -44.962086 -12.149617 -78.038765
10100937500 -41.59428 78.42691 -80.964302 177.61696 -81.210472 -80.074791 -12.175254 -78.051308
10102000000 -41.216866 79.757355 -74.224609 -99.142502 -73.815819 -93.575516 -12.181955 -78.027512
10103062500 -40.887688 79.067978 -82.874329 -92.603516 -66.794914 -98.448235 -12.187947 -78.094231
10104125000 -41.025818 80.123444 -76.444656 -55.775372 -84.228477 -143.57956 -12.211106 -78.138504
10105187500 -40.869251 81.307068 -75.453957 -149.64226 -75.308426 -111.992 -12.235519 -78.000832
10106250000 -40.48035 81.496178 -73.199745 -80.146988 -70.404633 -70.846718 -12.22315 -77.873589
10107312500 -40.484444 82.099472 -85.172256 -32.321648 -83.835602 175.8866 -12.214474 -77.925407
10108375000 -40.120781 81.113167 -67.009865 -108.08074 -74.16433 -84.617546 -12.208283 -77.986748
10109437500 -39.78875 83.221222 -90.342262 172.41612 -75.610252 153.12677 -12.208943 -78.012123
10110500000 -39.969349 82.443787 -72.549835 -104.61245 -73.813469 -125.60208 -12.228769 -78.099876
10111562500 -39.491116 80.555534 -72.363708 177.07967 -84.635101 -170.64041 -12.232011 -78.07296
10112625000 -39.431889 81.894417 -79.182358 -131.55467 -73.202988 -109.58971 -12.234861 -78.039207
10113687500 -39.099056 81.723129 -72.22316 -160.1429 -74.339157 -149.58801 -12.229789 -78.138138
10114750000 -38.972176 81.720711 -79.507942 -102.7212 -77.131714 -85.512764 -12.247044 -78.222809
10115812500 -38.780643 81.74308 -73.059639 -166.08183 -72.041763 -152.2063 -12.268608 -78.143242
10116875000 -38.6464 81.631721 -83.032722 -170.30617 -70.365311 -149.60316 -12.27379 -78.162109
10117937500 -38.555107 80.928696 -69.761711 -163.12755 -74.681602 127.97454 -12.277483 -78.156776
10119000000 -38.350868 81.06485 -73.31012 179.92322 -75.946373 171.12541 -12.276705 -78.162018
10120062500 -37.973457 80.66301 -70.859306 150.97783 -76.77195 62.793865 -12.307652 -78.276405
10121125000 -38.045448 80.915504 -69.112877 147.86708 -73.295876 -94.529716 -12.337092 -78.112213
10122187500 -38.082939 79.165253 -75.87941 -158.63954 -87.830673 -135.23512 -12.332746 -77.788872
10123250000 -37.676521 78.556824 -73.92585 114.58967 -73.516106 -105.54101 -12.292178 -77.803467
10124312500 -37.475872 78.407921 -75.049835 74.494156 -78.656509 139.157 -12.288943 -77.959694
10125375000 -37.187027 77.848381 -79.360229 103.31735 -74.127289 170.84973 -12.32265 -77.925705
10126437500 -37.163746 78.367386 -86.533134 -19.757605 -73.820023 87.751411 -12.316057 -77.815445
10127500000 -36.933018 77.58432 -87.134178 7.1738572 -71.025162 141.34454 -12.280951 -77.797447
10128562500 -36.82859 76.561981 -81.344772 122.53133 -72.693748 -147.84692 -12.30139 -77.883743
10129625000 -36.671165 77.360756 -87.383804 33.573715 -75.899651 16.591616 -12.301149 -77.817986
10130687500 -36.386448 76.639969 -83.026405 48.179398 -75.917183 16.905869 -12.297141 -77.80407
10131750000 -36.270489 76.171272 -80.418091 38.468857 -77.68309 -176.74088 -12.290597 -77.665512
10132812500 -36.046833 75.540314 -76.262253 170.66681 -79.631516 -18.515949 -12.282134 -77.789825
10133875000 -35.826283 74.932831 -81.270103 -152.42128 -83.504135 -179.15152 -12.271224 -77.826736
10134937500 -35.778934 74.253082 -78.601837 -50.342175 -73.383507 178.36301 -12.273534 -77.794296
10136000000 -35.488552 73.422127 -70.849159 -125.5649 -73.929924 -173.84807 -12.265688 -77.815514
10137062500 -35.332718 72.122299 -84.182831 -89.399902 -78.593552 126.70589 -12.26049 -77.736794
10138125000 -35.151993 71.198883 -73.952812 -138.45848 -74.852577 -164.85439 -12.252127 -77.708305
10139187500 -34.99205 71.114197 -74.468109 -144.88708 -71.273376 174.72397 -12.216033 -77.694862
10140250000 -34.801041 69.527328 -73.747086 -159.6843 -77.163643 142.74326 -12.207676 -77.908966
10141312500 -34.834476 68.86393 -77.640808 60.329311 -68.188385 142.07385 -12.222216 -78.089874
10142375000 -34.518852 67.650673 -81.342316 -124.76209 -83.779091 101.09728 -12.22373 -78.104057
10143437500 -34.569393 65.885101 -76.340157 101.10977 -85.147163 115.21356 -12.20928 -78.148285
10144500000 -34.350712 66.042473 -79.736694 32.670551 -75.346367 130.48035 -12.219348 -78.24424
10145562500 -34.338928 65.187454 -73.957466 -113.7768 -79.299805 74.044357 -12.217303 -78.304581
10146625000 -34.2845 62.777752 -82.881149 157.33723 -74.220772 123.39338 -12.23131 -78.519119
10147687500 -34.051502 62.786377 -91.43911 -27.624609 -72.867493 94.3918 -12.245383 -78.464371
10148750000 -33.93866 61.263042 -86.260277 32.158985 -77.0616 -25.00934 -12.253852 -78.412186
10149812500 -33.821304 60.24688 -80.505287 -179.89445 -77.417259 81.761101 -12.246422 -78.583107
10150875000 -33.894878 59.254807 -75.922714 52.347153 -79.631584 -62.15733 -12.27544 -78.766846
10151937500 -33.800941 58.046185 -75.603622 147.29021 -77.272896 80.476318 -12.278478 -78.470886
10153000000 -33.691467 57.245735 -78.831635 68.394341 -70.09684 141.55855 -12.281983 -78.332657
10154062500 -33.765087 55.983776 -79.882431 -111.16955 -79.206398 117.62996 -12.241046 -78.40786
10155125000 -33.695881 54.777458 -78.546417 41.474281 -75.482712 114.31709 -12.234579 -78.544502
10156187500 -33.638992 53.686306 -86.858696 -21.589169 -77.166916 -35.966599 -12.254962 -78.727592
10157250000 -33.528389 52.529453 -70.361496 -58.092575 -81.942055 31.315485 -12.270712 -78.590912
10158312500 -33.443535 51.882954 -82.778107 -97.044876 -73.346901 2.2474625 -12.269968 -78.561531
10159375000 -33.524364 50.667763 -84.642067 66.086441 -77.650696 33.318993 -12.250839 -78.761787
10160437500 -33.55323 50.231022 -74.735069 -3.5404544 -78.817307 -166.44493 -12.274297 -78.87397
10161500000 -33.52993 49.083542 -88.950287 -6.7059684 -76.647995 29.693254 -12.29346 -78.8573
10162562500 -33.549538 48.409908 -76.890144 161.82947 -77.072235 16.837351 -12.278294 -78.893875
10163625000 -33.510864 47.797825 -80.327827 -85.237724 -94.216255 -46.445438 -12.304192 -78.975754
10164687500 -33.57217 46.861343 -85.975235 50.740959 -80.093933 52.442177 -12.326774 -78.842552
10165750000 -33.512207 45.407883 -75.665733 4.6989722 -77.357132 141.54344 -12.333299 -78.750008
10166812500 -33.489326 44.034801 -77.910622 -53.834694 -85.701302 -145.55293 -12.324569 -78.812866
10167875000 -33.535183 43.871323 -81.881866 100.56374 -71.851791 137.79056 -12.327289 -78.765015
10168937500 -33.547626 42.975227 -76.346886 -135.34279 -87.110229 -162.51131 -12.3422 -78.664566
10170000000 -33.522976 41.927887 -76.92865 -70.709915 -73.444557 -146.1803 -12.314104 -78.774879
10171062500 -33.54097 40.974293 -73.379433 138.8989 -76.875443 -54.752003 -12.343027 -78.974144
10172125000 -33.563164 39.023163 -81.71183 -160.55049 -86.830643 -115.52189 -12.352173 -78.794189
10173187500 -33.646862 39.4259 -87.740616 -116.64194 -82.537628 -100.46879 -12.342414 -78.758636
10174250000 -33.546097 38.150116 -75.130264 -154.92741 -79.916924 126.86897 -12.346043 -78.67099
10175312500 -33.761646 36.699318 -80.352318 -133.40176 -89.357742 129.10149 -12.339249 -78.67942
10176375000 -33.804466 35.462593 -74.874657 142.73441 -76.640976 160.19659 -12.345472 -78.705711
10177437500 -33.753429 35.583126 -80.997086 114.4055 -75.895706 89.556396 -12.3515 -78.762268
10178500000 -33.803688 33.603943 -92.581596 -122.04372 -77.317238 -35.925991 -12.361829 -78.77533
10179562500 -33.811085 32.799042 -67.569572 104.80692 -76.192497 -41.033211 -12.375251 -78.605942
10180625000 -33.901871 31.138706 -76.033897 23.629316 -73.909012 138.54384 -12.345666 -78.592102
10181687500 -34.047806 29.685423 -72.852592 103.82964 -79.617401 -108.11482 -12.331506 -78.665382
10182750000 -34.02771 28.512489 -76.396362 -20.728886 -81.431076 2.8334029 -12.350588 -78.613098
10183812500 -34.144699 26.742725 -80.389679 82.705933 -77.111412 34.661213 -12.356002 -78.627831
10184875000 -34.303238 26.004641 -74.238831 -27.355738 -78.875786 141.47307 -12.333232 -78.66819
10185937500 -34.367443 23.942476 -73.882118 47.982639 -79.343552 69.714409 -12.339608 -78.742477
10187000000 -34.419796 22.933187 -76.144348 -28.379639 -74.349091 -48.514175 -12.347138 -78.761932
10188062500 -34.446705 21.698759 -75.982559 -17.098314 -75.460152 45.286396 -12.334902 -78.930138
10189125000 -34.568462 20.598873 -72.462914 -47.573952 -72.396729 -54.02861 -12.333393 -79.089813
10190187500 -34.778545 19.262228 -76.407539 11.563564 -82.555428 -45.8209 -12.395201 -79.035934
10191250000 -34.900311 16.822182 -72.68737 -84.202705 -84.567055 -75.517403 -12.398816 -78.73925
10192312500 -35.134033 15.84981 -79.770508 -88.453186 -70.008629 -89.330429 -12.357924 -78.644218
10193375000 -35.395844 13.734856 -67.90625 -94.059891 -66.685005 -91.796646 -12.342547 -78.964714
10194437500 -35.412338 12.683736 -71.525757 -29.680424 -74.381279 -90.969337 -12.385761 -79.069794
10195500000 -35.657143 11.456523 -67.78228 -82.989265 -73.095924 -149.13977 -12.404675 -78.905411
10196562500 -35.914101 8.3816662 -69.350914 -89.839706 -71.913795 -39.094795 -12.404482 -78.814125
10197625000 -36.076164 7.7638445 -85.812553 -106.57156 -69.310944 -69.743858 -12.398316 -78.967125
10198687500 -36.355381 5.9498343 -75.761703 -30.361305 -72.844398 -133.34875 -12.417475 -79.015587
10199750000 -36.529835 5.1734395 -73.572823 -65.525909 -86.69149 -131.97522 -12.441174 -78.804855
10200812500 -36.656734 1.6096686 -80.430275 -82.436783 -70.209778 -106.98383 -12.403547 -78.833557
10201875000 -37.090073 -0.403447 -70.628822 165.88075 -78.118927 -69.024963 -12.423494 -79.01564
10202937500 -37.287796 -1.6389757 -72.776184 -137.80472 -70.97715 -110.14385 -12.474228 -78.940666
10204000000 -37.556061 -2.9988208 -78.478241 -78.716301 -71.827736 -139.04672 -12.469012 -78.576042
10205062500 -37.821648 -6.5838037 -74.800491 -43.747837 -75.376373 -112.4651 -12.433434 -78.425858
10206125000 -37.961029 -8.9370251 -84.958687 84.89473 -86.638252 23.377527 -12.427979 -78.587303
10207187500 -38.307648 -10.008915 -72.010109 178.0592 -75.193245 155.72205 -12.437234 -78.554085
10208250000 -38.534821 -12.789474 -83.982086 -162.05287 -81.376717 17.130138 -12.41655 -78.636955
10209312500 -38.863796 -13.886001 -77.496727 -80.682037 -72.63662 -139.63116 -12.403172 -78.722672
10210375000 -38.916447 -18.108604 -79.290733 106.35708 -71.290215 -127.6424 -12.42156 -78.870262
10211437500 -39.44968 -19.336016 -88.935837 162.73274 -71.298523 -82.667 -12.45398 -78.844009
10212500000 -39.850258 -22.096228 -78.821259 -137.86859 -68.122849 -110.19447 -12.435189 -78.628021
